time,V_C,I_L,V_IN,V_C
0.0,0.0,0.0,13.74298756120102,0.0
2e-07,0.0,0.05560884109415286,12.581736690546435,0.0
4e-07,0.04119173414381693,0.10585036509988502,11.89593153701149,0.04119173414381693
6e-07,0.1195994119955836,0.15254547530172746,10.147718163886655,0.1195994119955836
8e-07,0.23259606036723357,0.19128503762160137,8.903853382090137,0.23259606036723357
1e-06,0.374288680827679,0.2240649942624848,8.263504238125867,0.374288680827679
1.2e-06,0.5402627506517418,0.2532833982606688,6.6430798537632105,0.5402627506517418
1.4e-06,0.7278800826966816,0.27491623311414665,4.594793258790225,0.7278800826966816
1.6e-06,0.9315217368553087,0.2872341676617406,2.2186773975952816,0.9315217368553087
1.8e-06,1.1442877869751165,0.2889569121188419,-0.9455294177290742,1.1442877869751165
2e-06,1.3583299441001846,0.2769846407849842,-4.691066784842985,1.3583299441001846
2.2e-06,1.5635037520890618,0.2491254752429649,-8.681696368029488,1.5635037520890618
2.4e-06,1.7480411411579246,0.2046187323008717,-11.497006635431601,1.7480411411579246
2.5999999999999997e-06,1.8996105724919037,0.1485131485723404,-13.217325820529318,1.8996105724919037
2.8e-06,2.0096203121751186,0.08551971744118081,-13.90751969419798,2.0096203121751186
3e-06,2.0729682510204377,0.020062201086408882,-14.13754821797546,2.0729682510204377
3.2e-06,2.087829140714074,-0.04577771363787063,-14.932849578133213,2.087829140714074
3.3999999999999996e-06,2.0539197232045403,-0.1141008266699533,-16.038513500572936,2.0539197232045403
3.6e-06,1.9694005923379083,-0.1859433598925325,-17.03849823396798,1.9694005923379083
3.8e-06,1.8316647701952917,-0.26063205137111656,-18.46713167704334,1.8316647701952917
4e-06,1.638603991401872,-0.33965441341317476,-19.605123522013944,1.638603991401872
4.2e-06,1.387008129614335,-0.421559824325258,-20.74683944477136,1.387008129614335
4.4e-06,1.074741593077107,-0.5060937033506882,-21.942149084950348,1.074741593077107
4.6e-06,0.6998573683728935,-0.5931979589676741,-22.650072949858973,0.6998573683728935
4.8e-06,0.2604514728412831,-0.6806150939647979,-23.009362048578865,0.2604514728412831
4.9999999999999996e-06,-0.2437078560215301,-0.7666676218403198,-23.30438570801536,-0.2437078560215301
5.199999999999999e-06,-0.8116097981254706,-0.8508488205570071,-23.128002990233654,-0.8116097981254706
5.4e-06,-1.4418681837232534,-0.931010304181676,-23.290079773700178,-1.4418681837232534
5.6e-06,-2.1315054460800504,-1.0083187379375085,-23.149758419307133,-2.1315054460800504
5.7999999999999995e-06,-2.8784082149226493,-1.0813391696139971,-22.63428928781339,-2.8784082149226493
6e-06,-3.679400192414499,-1.1483657882352656,-22.173060052795137,-3.679400192414499
6.2e-06,-4.530041517033214,-1.2094681636013735,-21.75616431156259,-4.530041517033214
6.4e-06,-5.425943860441639,-1.264693014646543,-21.854830019686208,-5.425943860441639
6.5999999999999995e-06,-6.36275350092056,-1.3160187766194666,-21.618560547206283,-6.36275350092056
6.799999999999999e-06,-7.337582224342387,-1.3619636445177439,-21.426213288980822,-7.337582224342387
7e-06,-8.346444183244419,-1.4026141702425372,-21.390969822224765,-8.346444183244419
7.2e-06,-9.385417642683334,-1.438532386012792,-20.934957491362827,-9.385417642683334
7.3999999999999995e-06,-10.450997187877995,-1.4679407733407857,-20.925085988261888,-10.450997187877995
7.6e-06,-11.538360723685985,-1.4926217784696747,-21.974953335811833,-11.538360723685985
7.8e-06,-12.644006485515373,-1.5168520804203596,-23.89807883429762,-12.644006485515373
8e-06,-13.767600619160083,-1.5441140974833036,-25.744080293012228,-13.767600619160083
8.2e-06,-14.911388839518086,-1.5739853360886613,-27.83389098756058,-14.911388839518086
8.4e-06,-16.077303903287465,-1.607344782923865,-29.281125206376267,-16.077303903287465
8.599999999999999e-06,-17.267929668416254,-1.641447192683133,-31.28300024178162,-17.267929668416254
8.8e-06,-18.483816477811168,-1.6784404568927607,-32.46664845666713,-18.483816477811168
9e-06,-19.727105705139138,-1.714857930910751,-33.22368267916899,-19.727105705139138
9.2e-06,-20.997370839147102,-1.7488582074932093,-34.00736294842362,-20.997370839147102
9.4e-06,-22.292821363216145,-1.7804682489026566,-34.970460247843384,-22.292821363216145
9.6e-06,-23.61168673277367,-1.8103441844735462,-35.70773938073403,-23.61168673277367
9.8e-06,-24.952682424976295,-1.8374912703138568,-36.18523888004138,-24.952682424976295
9.999999999999999e-06,-26.313787069653227,-1.860793205069921,-35.99127617826989,-26.313787069653227
1.0199999999999999e-05,-27.692152406742057,-1.8774777529576265,-35.54604600279675,-27.692152406742057
1.0399999999999999e-05,-29.08287666819215,-1.8865294592866795,-35.04873945825666,-29.08287666819215
1.06e-05,-30.480305897293395,-1.8877774924080075,-34.73565167637364,-30.480305897293395
1.08e-05,-31.8786595953734,-1.8820400650560563,-34.44772437500764,-31.8786595953734
1.1e-05,-33.272763347266775,-1.8695017540196024,-34.22289373268442,-33.272763347266775
1.12e-05,-34.65757946135537,-1.8505213379274859,-35.05845770675232,-34.65757946135537
1.14e-05,-36.02833600796832,-1.8295373631949217,-36.67624139569887,-36.02833600796832
1.1599999999999999e-05,-37.383548869594186,-1.8098186565892156,-37.9200173385852,-37.383548869594186
1.1799999999999999e-05,-38.724155281882496,-1.7898892413518388,-38.89080367947426,-38.724155281882496
1.2e-05,-40.04999916436534,-1.7686994454197758,-39.845874297981375,-40.04999916436534
1.22e-05,-41.36014690171332,-1.746261195868913,-40.67709663195891,-41.36014690171332
1.24e-05,-42.65367371346807,-1.7221498114588258,-41.30712778499881,-42.65367371346807
1.26e-05,-43.92934024047461,-1.6956349322174957,-42.21955068563965,-43.92934024047461
1.28e-05,-45.185366116191275,-1.6679690285458506,-43.5114972761196,-45.185366116191275
1.3e-05,-46.42089872992894,-1.6407911489431377,-44.82324334404378,-46.42089872992894
1.3199999999999999e-05,-47.636299580997935,-1.6142590265192043,-46.46991211343785,-47.636299580997935
1.3399999999999999e-05,-48.832047008049194,-1.5898090903658457,-48.12439237768427,-48.832047008049194
1.3599999999999999e-05,-50.00968337128315,-1.5675268190682323,-50.37126460313444,-50.00968337128315
1.38e-05,-51.17081434837073,-1.5498683958408506,-52.04555581832716,-51.17081434837073
1.4e-05,-52.31886501195655,-1.534514242053199,-53.1457749513561,-52.31886501195655
1.42e-05,-53.45554222829225,-1.5191540380325042,-53.79662076155466,-53.45554222829225
1.44e-05,-54.58084151572373,-1.50200656103094,-53.56229696970547,-54.58084151572373
1.4599999999999999e-05,-55.693438968339244,-1.4795407225695576,-52.11495885267606,-55.693438968339244
1.4799999999999999e-05,-56.78939505913151,-1.4469423416291711,-50.184620027747265,-56.78939505913151
1.4999999999999999e-05,-57.86120420107904,-1.4024431055508424,-49.366965959672704,-57.86120420107904
1.52e-05,-58.90005094593152,-1.350815443051744,-49.58467559551582,-58.90005094593152
1.5399999999999998e-05,-59.9006549778217,-1.2964920786591354,-50.2550580179456,-59.9006549778217
1.56e-05,-60.86101948053217,-1.2415018756963043,-50.84055150104615,-60.86101948053217
1.5799999999999998e-05,-61.78065049956647,-1.185671689536115,-51.16228919144851,-61.78065049956647
1.6e-05,-62.65892582514878,-1.1281062736786682,-51.720822562774664,-62.65892582514878
1.62e-05,-63.49456010194779,-1.0699568620034547,-52.30174770555379,-63.49456010194779
1.64e-05,-64.28712074046886,-1.0114945473745882,-53.27435254406783,-64.28712074046886
1.66e-05,-65.03637596074634,-0.954487303457183,-54.77299882643631,-65.03637596074634
1.68e-05,-65.74340359293684,-0.9012262351627859,-57.11292690229531,-65.74340359293684
1.7e-05,-66.41097858194631,-0.8552473957385883,-60.14561239377563,-66.41097858194631
1.7199999999999998e-05,-67.0444951713823,-0.8194281924100684,-63.94470765815213,-67.0444951713823
1.74e-05,-67.65147901761198,-0.7968872096152106,-68.03425568933035,-67.65147901761198
1.76e-05,-68.24176583954917,-0.7887447575817798,-71.5142735897182,-68.24176583954917
1.78e-05,-68.82602121553568,-0.7924198145422234,-74.74109557858915,-68.82602121553568
1.8e-05,-69.41299885593732,-0.8067662871596246,-76.33926450894407,-69.41299885593732
1.82e-05,-70.01060351309259,-0.8250396500117411,-77.12994533768226,-70.01060351309259
1.84e-05,-70.62174399458277,-0.8438748318777288,-77.75897795413533,-70.62174399458277
1.8599999999999998e-05,-71.24683646264035,-0.8625545878211449,-78.62959906972506,-71.24683646264035
1.88e-05,-71.8857657869523,-0.8820041127731898,-79.19399114212031,-71.8857657869523
1.8999999999999998e-05,-72.5391021667843,-0.9009158874220292,-79.85919619527638,-72.5391021667843
1.92e-05,-73.2064472685784,-0.9196468816945447,-80.0725982308085,-73.2064472685784
1.94e-05,-73.88766718094473,-0.9363095102875084,-78.80529199045384,-73.88766718094473
1.96e-05,-74.5812297811577,-0.944864823311929,-77.09274351953125,-74.5812297811577
1.98e-05,-75.28112965027765,-0.9435539944294112,-74.89637945193319,-75.28112965027765
1.9999999999999998e-05,-75.98005853504017,-0.9305082282391735,-72.99631934452562,-75.98005853504017
2.02e-05,-76.6693238892914,-0.9070775493356049,-71.01168551735503,-76.6693238892914
2.0399999999999998e-05,-77.34123318509556,-0.8730866129735785,-68.2069222805271,-77.34123318509556
2.06e-05,-77.98796400952044,-0.8254109448848139,-65.35926918609397,-77.98796400952044
2.0799999999999997e-05,-78.59937952424993,-0.764151091840023,-61.618838523185715,-78.59937952424993
2.1e-05,-79.16541737005736,-0.686002834755754,-57.491213831783426,-79.16541737005736
2.12e-05,-79.67356761802458,-0.5897971579316134,-53.67783215061131,-79.67356761802458
2.14e-05,-80.11045440167763,-0.4772758139581467,-49.63595876569266,-80.11045440167763
2.16e-05,-80.46399204164662,-0.34801404514324985,-45.08518555590417,-80.46399204164662
2.1799999999999998e-05,-80.7217802232342,-0.20050701122534087,-40.50779805574119,-80.7217802232342
2.2e-05,-80.87030393525298,-0.03527360209733038,-37.03447844166501,-80.87030393525298
2.2199999999999998e-05,-80.89643252939915,0.1425439907400155,-34.372358750997144,-80.89643252939915
2.24e-05,-80.79084438811024,0.3291293702118373,-32.07803386047291,-80.79084438811024
2.26e-05,-80.54704485462,0.5224003941476447,-29.8772460239474,-80.54704485462
2.28e-05,-80.16008159969581,0.7213549344118352,-27.425671339182955,-80.16008159969581
2.3e-05,-79.62574461124261,0.9263798288405962,-25.097443338815552,-79.62574461124261
2.3199999999999998e-05,-78.93953733061994,1.1363270302382154,-23.534208938249215,-78.93953733061994
2.34e-05,-78.09781360451755,1.3474403014050034,-21.929025955421736,-78.09781360451755
2.3599999999999998e-05,-77.09970967755089,1.5592656460849639,-19.93694488525819,-77.09970967755089
2.38e-05,-75.94469808785833,1.7727566149099963,-17.506941760556355,-75.94469808785833
2.4e-05,-74.63154503977685,1.9890700373233512,-14.423661076256227,-74.63154503977685
2.42e-05,-73.15815982694474,2.210235168827516,-10.844280688330475,-73.15815982694474
2.44e-05,-71.52094859077621,2.4376300904624,-7.111397597547594,-71.52094859077621
2.4599999999999998e-05,-69.71529667191518,2.6712295569915545,-3.7960204520294765,-69.71529667191518
2.48e-05,-67.7366081111807,2.908679699052205,-1.525624792229667,-67.7366081111807
2.4999999999999998e-05,-65.58203055632721,3.145076385451097,0.6538207390147619,-65.58203055632721
2.52e-05,-63.252344344881955,3.379491744506902,2.9141881778189838,-63.252344344881955
2.5399999999999997e-05,-60.749017126728695,3.611775429759512,5.0396805657939625,-60.749017126728695
2.56e-05,-58.07362791949943,3.84098433905666,6.228096113313184,-58.07362791949943
2.58e-05,-55.22845433501301,4.062966042856906,6.726980446172184,-55.22845433501301
2.6e-05,-52.218849858822715,4.274793061793044,7.6143371349777045,-52.218849858822715
2.62e-05,-49.05233647971676,4.478534705814464,8.657418558508619,-49.05233647971676
2.6399999999999998e-05,-45.73490336429864,4.676389821782702,10.00222008558,-45.73490336429864
2.66e-05,-42.27091090371886,4.874665370591341,11.370989107876866,-42.27091090371886
2.6799999999999998e-05,-38.66004766624379,5.094369639875908,12.799903701142759,-38.66004766624379
2.7e-05,-34.88644052559497,5.43590305154101,14.578412035420051,-34.88644052559497
2.7199999999999997e-05,-30.85984567260163,6.030030699305964,16.098598723069586,-30.85984567260163
2.74e-05,-26.393156265708324,6.775300956715325,17.435382453021344,-26.393156265708324
2.76e-05,-21.374414816289566,7.486756441965552,18.379955665684754,-21.374414816289566
2.7799999999999998e-05,-15.828669303722492,8.049207936750246,18.911859358303055,-15.828669303722492
2.8e-05,-9.866293054277866,8.405981001832117,19.20017422323418,-9.866293054277866
2.8199999999999998e-05,-3.6396404603281507,8.537776604000339,19.4682807281366,-3.6396404603281507
2.84e-05,2.6846385055980253,8.451515717924831,19.646344006830784,2.6846385055980253
2.8599999999999997e-05,8.945020518875676,8.163551271482197,20.293279120370453,8.945020518875676
2.88e-05,14.992095534788414,7.718375141316823,20.539952502850003,14.992095534788414
2.9e-05,20.709410454282356,7.13650570699194,20.471583715709407,20.709410454282356
2.9199999999999998e-05,25.99571097798009,6.453298721053948,20.32470573881472,25.99571097798009
2.94e-05,30.775932252834863,5.733909075450057,20.9253978920183,30.775932252834863
2.9599999999999998e-05,35.02327230872379,5.119847436117093,21.916875829358588,35.02327230872379
2.98e-05,38.81575189103275,4.831834101613213,23.214746496604903,38.81575189103275
2.9999999999999997e-05,42.39488826259809,4.671381556193788,23.78255299562249,42.39488826259809
3.02e-05,45.85517089681571,4.516639051398907,24.36571398546919,45.85517089681571
3.04e-05,49.20082945340749,4.3587344360097795,25.425705294946212,49.20082945340749
3.06e-05,52.42952162822955,4.1973519269085,26.71337185981058,52.42952162822955
3.0799999999999996e-05,55.53867120371733,4.032592752620792,28.422905382502762,55.53867120371733
3.1e-05,58.5257769463994,3.8660095628181947,30.064063332779646,58.5257769463994
3.12e-05,61.389487733672134,3.697334923839959,32.60000653508566,61.389487733672134
3.14e-05,64.12825434392396,3.530529120452822,36.35167365485615,64.12825434392396
3.1599999999999996e-05,66.74346109981494,3.3708692050954476,39.902300757540154,66.74346109981494
3.18e-05,69.2404012517375,3.217693847797769,43.120815220884914,69.2404012517375
3.2e-05,71.62387817603214,3.069870911594687,47.065000093192694,71.62387817603214
3.22e-05,73.89785662906523,2.9306797599870054,51.722009525649185,73.89785662906523
3.24e-05,76.0687305253519,2.8032919963983858,55.931572747070824,76.0687305253519
3.26e-05,78.14524311527663,2.686054411734499,59.50898305806361,78.14524311527663
3.28e-05,80.13491304989478,2.576572550553113,62.430166011379036,80.13491304989478
3.2999999999999996e-05,82.04348530956375,2.472376818622326,64.22909819959753,82.04348530956375
3.32e-05,83.87487554558028,2.3691148893141234,65.04717050525497,83.87487554558028
3.34e-05,85.62977546359075,2.2630696562180863,64.98403563648768,85.62977546359075
3.36e-05,87.30612335708562,2.150987663685518,64.30979359177672,87.30612335708562
3.38e-05,88.89944755240823,2.0307769238244373,63.52908109287627,88.89944755240823
3.4e-05,90.40372675524115,1.902453672816238,63.07577935949901,90.40372675524115
3.42e-05,91.81295169806799,1.7678256564316617,63.33216350126811,91.81295169806799
3.4399999999999996e-05,93.12245218431367,1.6302529920156128,63.31843856258236,93.12245218431367
3.46e-05,94.33004699321413,1.4890762879867734,63.623069520283806,94.33004699321413
3.48e-05,95.43306646579693,1.3460478602110022,63.86303676316554,95.43306646579693
3.5e-05,96.4301389548421,1.2013484708053213,64.07089991043067,96.4301389548421
3.52e-05,97.3200267109942,1.0552944040577223,64.41655323488908,97.3200267109942
3.54e-05,98.10172626955547,0.9088923463645996,64.21738969623725,98.10172626955547
3.56e-05,98.77497985945517,0.7603698963113512,64.05447762177263,98.77497985945517
3.5799999999999996e-05,99.3382168196858,0.6103373607761403,64.05525580375785,99.3382168196858
3.6e-05,99.79031856840886,0.45991950617917277,64.33076007188234,99.79031856840886
3.62e-05,100.13099968409713,0.31068005431398416,65.09730672533192,100.13099968409713
3.64e-05,100.36113305766305,0.165038701775553,67.05110323492242,100.36113305766305
3.6599999999999995e-05,100.48338394786717,0.02819743084663573,68.74109064463221,100.48338394786717
3.68e-05,100.50427093367949,-0.10059351744513217,69.81144269058154,100.50427093367949
3.7e-05,100.42975721705346,-0.22359534663064232,70.2707760413231,100.42975721705346
3.7199999999999996e-05,100.2641310343641,-0.34297937261296263,70.16745301475068,100.2641310343641
3.74e-05,100.01007223983598,-0.46069774342300707,69.75137436343542,100.01007223983598
3.76e-05,99.66881465211523,-0.5776797730405188,70.05753190935766,99.66881465211523
3.78e-05,99.24090370912225,-0.6906554682193308,71.13949466763552,99.24090370912225
3.7999999999999995e-05,98.72930706599682,-0.7961751920238452,71.86079163740632,98.72930706599682
3.82e-05,98.13954766449767,-0.8954471532616722,72.0122754841517,98.13954766449767
3.84e-05,97.47625347689643,-0.9905371966061259,72.16086565886397,97.47625347689643
3.8599999999999996e-05,96.74252222015116,-1.0812069112725495,72.08762154781108,96.74252222015116
3.88e-05,95.94162821180112,-1.168121690591741,72.25457227112253,95.94162821180112
3.9e-05,95.07635288543686,-1.2500767682733764,72.33459618061103,95.07635288543686
3.92e-05,94.15037009412325,-1.327220450934223,71.76196130870008,94.15037009412325
3.9399999999999995e-05,93.16724383417197,-1.402013062697174,72.0483249081033,93.16724383417197
3.96e-05,92.12871563958147,-1.4707581809044525,73.35678777785677,92.12871563958147
3.98e-05,91.0392651352078,-1.5291436453058334,74.37842529922709,91.0392651352078
3.9999999999999996e-05,89.90656613868497,-1.5782469673803832,75.02159156096447,89.90656613868497
4.02e-05,88.7374943109958,-1.6195385256707029,75.71179159369778,88.7374943109958
4.04e-05,87.53783614383232,-1.6527694527469246,76.60739461667814,87.53783614383232
4.06e-05,86.3135624751309,-1.677073512951603,78.0657498886782,86.3135624751309
4.0799999999999996e-05,85.07128579887045,-1.6901653459448212,80.5304697426154,85.07128579887045
4.1e-05,83.81931146854095,-1.6880093493877757,82.84427601092506,83.81931146854095
4.12e-05,82.56893417269815,-1.6713658032261733,84.30138355117859,82.56893417269815
4.14e-05,81.33088542956764,-1.6439075446160953,84.64003158645248,81.33088542956764
4.1599999999999995e-05,80.11317613725943,-1.6103722250892827,84.29695788666571,80.11317613725943
4.18e-05,78.92030782237848,-1.5736933567112645,84.03227269253134,78.92030782237848
4.2e-05,77.75460903962939,-1.5336930371578508,84.61160352323725,77.75460903962939
4.2199999999999996e-05,76.61854012321616,-1.4870912997303114,85.07300722633818,76.61854012321616
4.24e-05,75.51699101230483,-1.4345726771182798,85.48345262312466,75.51699101230483
4.26e-05,74.4543445848098,-1.3765606922720324,85.98077705882548,74.4543445848098
4.28e-05,73.43466999794163,-1.3129311086396227,87.36900090898467,73.43466999794163
4.2999999999999995e-05,72.46212843598634,-1.2403112286515896,90.06333091898979,72.46212843598634
4.32e-05,71.54337937772591,-1.153704077094455,92.50423313693966,71.54337937772591
4.34e-05,70.68878376506335,-1.0545403647025309,94.52860529261099,70.68878376506335
4.3599999999999996e-05,69.90764275417258,-0.9449362902079379,96.95020673306011,69.90764275417258
4.38e-05,69.20768994661115,-0.8237154023400576,99.91329163363623,69.20768994661115
4.4e-05,68.59753038932222,-0.6891638645639496,103.79529075297684,68.59753038932222
4.42e-05,68.08703863779337,-0.5380964423875709,107.87697031054174,68.08703863779337
4.4399999999999995e-05,67.68844868046925,-0.37032664967579393,111.59097524257993,67.68844868046925
4.46e-05,67.41413264367236,-0.1880178130753634,115.4182471354065,67.41413264367236
4.48e-05,67.27486018954247,0.008594555364699719,119.71882203367385,67.27486018954247
4.4999999999999996e-05,67.28122652684965,0.22070070891298527,124.33051264556556,67.28122652684965
4.52e-05,67.44470853345186,0.44898458974926103,129.09915791675976,67.44470853345186
4.54e-05,67.7772897110439,0.6932882974067095,134.28848110743814,67.7772897110439
